LTspice 24.1.1 for Windows
Circuit: C:\users\ianjackson\Documents\Spring 2025\MATH 560\Project\simulation\cmos_inv\cmos_inv.net
Start Time: Sun Apr 27 23:10:01 2025
solver = Normal
Maximum thread count: 8
tnom = 27
temp = 27
method = trap
Direct Newton iteration for .op point succeeded.
Semiconductor Device Operating Points:
                        --- BSIM3 MOSFETS ---
Name:       m2:MN       m1:MP
Model:      cmosn       cmosp
Id:        2.63e-05    2.63e-05
Vgs:       2.50e+00   -2.03e+00
Vds:       4.53e+00    4.75e-01
Vbs:       0.00e+00    4.75e-01
Vth:       4.53e-01   -7.78e-01
Vdsat:     1.34e+00   -1.44e+00
Gm:        2.07e-05    1.35e-05
Gds:       3.19e-06    4.54e-05
Gmb        6.38e-06    4.59e-06
Cbd:       1.45e-15    7.66e-15
Cbs:       2.32e-15    6.26e-15
Cgsov:     6.29e-17    6.13e-16
Cgdov:     6.29e-17    6.13e-16
Cgbov:     2.00e-18    2.00e-18
dQgdVgb:   1.54e-15    1.62e-14
dQgdVdb:  -6.29e-17   -6.41e-15
dQgdVsb:  -1.49e-15   -9.64e-15
dQddVgb:  -6.54e-16   -7.99e-15
dQddVdb:   1.51e-15    1.28e-14
dQddVsb:   7.89e-16    4.23e-15
dQbdVgb:  -2.32e-16   -1.83e-16
dQbdVdb:  -1.45e-15   -1.09e-14
dQbdVsb:  -2.47e-15   -5.70e-15


Total elapsed time: 8.378 seconds.

Files loaded:
C:\users\ianjackson\Documents\Spring 2025\MATH 560\Project\simulation\cmos_inv\cmos_inv.net
C:\users\ianjackson\Documents\Spring 2025\MATH 560\Project\simulation\cmos_inv\ee551.lib

